
T2740 000:052 SEGGER J-Link V6.12g Log File (0000ms, 0030ms total)
T2740 000:052 DLL Compiled: Jan 27 2017 18:18:51 (0000ms, 0030ms total)
T2740 000:052 Logging started @ 2017-03-01 10:42 (0000ms, 0030ms total)
T2740 000:052 JLINK_SetWarnOutHandler(...) (0000ms, 0030ms total)
T2740 000:052 JLINK_OpenEx(...)
Firmware: J-Link Lite-XMC4200 Rev.1 compiled Jan 14 2016 11:19:27
Hardware: V1.00
S/N: 591067027WEBSRV Webserver running on local port 19080 (0013ms, 0043ms total)
T2740 000:052   returns O.K. (0013ms, 0043ms total)
T2740 000:065 JLINK_SetErrorOutHandler(...) (0000ms, 0043ms total)
T2740 000:065 JLINK_ExecCommand("ProjectFile = "C:\Users\kacpe\Dropbox\Year 2\semester2\embedded\CounterCapture\Counter_Capture\JLinkSettings.ini"", ...). C:\Program Files (x86)\SEGGER\JLink_V612g\JLinkDevices.xml evaluated successfully.  returns 0x00 (0219ms, 0262ms total)
T2740 000:284 JLINK_ExecCommand("Device = XMC1100-Q024x0064", ...). Device "XMC1100-0064" selected.  returns 0x00 (0003ms, 0265ms total)
T2740 000:287 JLINK_ExecCommand("DisableConnectionTimeout", ...).   returns 0x01 (0000ms, 0265ms total)
T2740 000:287 JLINK_GetHardwareVersion()  returns 0x2710 (0000ms, 0265ms total)
T2740 000:287 JLINK_GetDLLVersion()  returns 61207 (0000ms, 0265ms total)
T2740 000:287 JLINK_GetFirmwareString(...) (0000ms, 0265ms total)
T2740 000:287 JLINK_GetDLLVersion()  returns 61207 (0000ms, 0265ms total)
T2740 000:287 JLINK_GetCompileDateTime() (0000ms, 0265ms total)
T2740 000:287 JLINK_GetFirmwareString(...) (0000ms, 0265ms total)
T2740 000:287 JLINK_GetHardwareVersion()  returns 0x2710 (0000ms, 0265ms total)
T2740 000:287 JLINK_TIF_Select(JLINKARM_TIF_SWD)  returns 0x00 (0002ms, 0267ms total)
T2740 000:289 JLINK_SetSpeed(5000) (0002ms, 0269ms total)
T2740 000:291 JLINK_GetId()Performing XMC1000 connection sequence.Firmware of connected J-Link (S/N 591067027) is too old and does not support connect for this device. Debugging may not be reliableTrying to identify target via SPD >0x108 TIF>Could not identify target via SPD. Trying again via SWD. >0x108 TIF>Found SWD-DP with ID 0x0BB11477 >0x0D TIF> >0x28 TIF> >0x0D TIF> >0x28 TIF> >0x0D TIF> >0x28 TIF> >0x0D TIF> >0x28 TIF> >0x0D TIF> >0x21 TIF> >0x0D TIF> >0x28 TIF> >0x0D TIF> >0x28 TIF> >0x0D TIF>
 >0x21 TIF> >0x0D TIF> >0x21 TIF> >0x0D TIF> >0x21 TIF>AP-IDR: 0x04770021, Type: AHB-APAHB-AP ROM: 0xF0000000 (Base addr. of first ROM table) >0x0D TIF> >0x28 TIF> >0x0D TIF> >0x28 TIF> >0x0D TIF> >0x28 TIF> >0x0D TIF> >0x21 TIF> >0x0D TIF> >0x21 TIF> >0x0D TIF> >0x28 TIF> >0x0D TIF> >0x21 TIF> >0x0D TIF> >0x21 TIF>Found Cortex-M0 r0p0, Little endian. -- CPU_ReadMem(4 bytes @ 0xE000EDF0) -- CPU_ReadMem(4 bytes @ 0xE0002000)FPUnit: 4 code (BP) slots and 0 literal slots -- CPU_ReadMem(4 bytes @ 0xE000EDFC)
 -- CPU_ReadMem(4 bytes @ 0xE0001000) -- CPU_WriteMem(4 bytes @ 0xE0001000)CoreSight components:ROMTbl 0 @ F0000000 -- CPU_ReadMem(16 bytes @ 0xF0000000) -- CPU_ReadMem(16 bytes @ 0xE00FFFF0) -- CPU_ReadMem(16 bytes @ 0xE00FFFE0)ROMTbl 0 [0]: F00FF000, CID: B105100D, PID: 000BB471 ROM TableROMTbl 1 @ E00FF000 -- CPU_ReadMem(16 bytes @ 0xE00FF000) -- CPU_ReadMem(16 bytes @ 0xE000EFF0) -- CPU_ReadMem(16 bytes @ 0xE000EFE0)ROMTbl 1 [0]: FFF0F000, CID: B105E00D, PID: 000BB008 SCS
 -- CPU_ReadMem(16 bytes @ 0xE0001FF0) -- CPU_ReadMem(16 bytes @ 0xE0001FE0)ROMTbl 1 [1]: FFF02000, CID: B105E00D, PID: 000BB00A DWT -- CPU_ReadMem(16 bytes @ 0xE0002FF0) -- CPU_ReadMem(16 bytes @ 0xE0002FE0)ROMTbl 1 [2]: FFF03000, CID: B105E00D, PID: 000BB00B FPB >0x0D TIF> >0x21 TIF>  returns 0x0BB11477 (0019ms, 0288ms total)
T2740 000:310 JLINK_GetDLLVersion()  returns 61207 (0000ms, 0288ms total)
T2740 000:310 JLINK_CORE_GetFound()  returns 0x60000FF (0000ms, 0288ms total)
T2740 000:310 JLINK_GetDebugInfo(0x100) -- Value=0xF0000000  returns 0x00 (0000ms, 0288ms total)
T2740 000:311 JLINK_GetDebugInfo(0x100) -- Value=0xF0000000  returns 0x00 (0000ms, 0288ms total)
T2740 000:311 JLINK_GetDebugInfo(0x101) -- Value=0x00000000  returns 0x00 (0000ms, 0288ms total)
T2740 000:311 JLINK_ReadMem (0xE0041FF0, 0x0010 Bytes, ...) -- CPU is running -- CPU_ReadMem(16 bytes @ 0xE0041FF0) - Data: 00 00 00 00 00 00 00 00 00 00 00 00 00 00 00 00  returns 0x00 (0000ms, 0288ms total)
T2740 000:311 JLINK_GetDebugInfo(0x102) -- Value=0x00000000  returns 0x00 (0000ms, 0288ms total)
T2740 000:311 JLINK_GetDebugInfo(0x103) -- Value=0x00000000  returns 0x00 (0000ms, 0288ms total)
T2740 000:312 JLINK_ReadMem (0xE0040FF0, 0x0010 Bytes, ...) -- CPU is running -- CPU_ReadMem(16 bytes @ 0xE0040FF0) - Data: 00 00 00 00 00 00 00 00 00 00 00 00 00 00 00 00  returns 0x00 (0000ms, 0289ms total)
T2740 000:312 JLINK_GetDebugInfo(0x104) -- Value=0xE0000000  returns 0x00 (0000ms, 0289ms total)
T2740 000:312 JLINK_GetDebugInfo(0x105) -- Value=0xE0001000  returns 0x00 (0000ms, 0289ms total)
T2740 000:312 JLINK_GetDebugInfo(0x106) -- Value=0xE0002000  returns 0x00 (0001ms, 0290ms total)
T2740 000:313 JLINK_GetDebugInfo(0x107) -- Value=0xE000E000  returns 0x00 (0000ms, 0290ms total)
T2740 000:313 JLINK_GetDebugInfo(0x10C) -- Value=0xE000EDF0  returns 0x00 (0000ms, 0290ms total)
T2740 000:313 JLINK_ReadMemU32(0xE000ED00, 0x0001 Items, ...) -- CPU is running -- CPU_ReadMem(4 bytes @ 0xE000ED00) - Data: 00 C2 0C 41  returns 0x01 (0000ms, 0290ms total)
T2740 000:313 JLINK_SetResetType(JLINKARM_CM3_RESET_TYPE_NORMAL)  returns JLINKARM_CM3_RESET_TYPE_NORMAL (0000ms, 0290ms total)
T2740 000:313 JLINK_Reset()Performing XMC1000 reset -- CPU_ReadMem(4 bytes @ 0x10001004) -- CPU_WriteMem(4 bytes @ 0xE0002000) -- CPU_ReadMem(4 bytes @ 0xE0002008) -- CPU_WriteMem(4 bytes @ 0xE0002008) -- CPU_WriteMem(4 bytes @ 0xE000ED0C) -- CPU is running -- CPU_WriteMem(4 bytes @ 0xE0002008) -- CPU_WriteMem(4 bytes @ 0xE0002000) -- CPU_ReadMem(4 bytes @ 0xE000EDFC) -- CPU_ReadMem(4 bytes @ 0xE0001000) -- CPU_WriteMem(4 bytes @ 0xE0001000) (0034ms, 0324ms total)
T2740 000:347 JLINK_ReadReg(R15 (PC))  returns 0x100010BC (0000ms, 0324ms total)
T2740 000:347 JLINK_ReadReg(XPSR)  returns 0x61000000 (0000ms, 0324ms total)
T2740 000:347 JLINK_Halt()  returns 0x00 (0000ms, 0324ms total)
T2740 000:347 JLINK_IsHalted()  returns TRUE (0000ms, 0324ms total)
T2740 000:347 JLINK_ReadMemU32(0xE000EDF0, 0x0001 Items, ...) -- CPU_ReadMem(4 bytes @ 0xE000EDF0) - Data: 03 00 03 00  returns 0x01 (0001ms, 0325ms total)
T2740 000:348 JLINK_WriteU32(0xE000EDF0, 0xA05F0003) -- CPU_WriteMem(4 bytes @ 0xE000EDF0)  returns 0x00 (0001ms, 0326ms total)
T2740 000:349 JLINK_WriteU32(0xE000EDFC, 0x01000000) -- CPU_WriteMem(4 bytes @ 0xE000EDFC)  returns 0x00 (0001ms, 0327ms total)
T2740 000:350 JLINK_GetHWStatus(...)  returns 0x00 (0000ms, 0327ms total)
T2740 000:350 JLINK_GetNumBPUnits(Type = 0xFFFFFF00)  returns 0x04 (0000ms, 0327ms total)
T2740 000:350 JLINK_GetNumBPUnits(Type = 0xF0)  returns 0x2000 (0000ms, 0327ms total)
T2740 000:350 JLINK_GetNumWPUnits()  returns 0x02 (0000ms, 0327ms total)
T2740 000:350 JLINK_GetSpeed()  returns 0xBB8 (0000ms, 0327ms total)
T2740 000:350 JLINK_ReadMemU32(0xE000E004, 0x0001 Items, ...) -- CPU_ReadMem(4 bytes @ 0xE000E004) - Data: 00 00 00 00  returns 0x01 (0001ms, 0328ms total)
T2740 000:351 JLINK_ReadReg(R15 (PC))  returns 0x100010BC (0000ms, 0328ms total)
T2740 000:351 JLINK_ReadReg(XPSR)  returns 0x61000000 (0000ms, 0328ms total)
T2740 000:443 JLINK_SetResetType(JLINKARM_CM3_RESET_TYPE_NORMAL)  returns JLINKARM_CM3_RESET_TYPE_NORMAL (0000ms, 0328ms total)
T2740 000:443 JLINK_Reset()Performing XMC1000 reset -- CPU_ReadMem(4 bytes @ 0x10001004) -- CPU_WriteMem(4 bytes @ 0xE0002000) -- CPU_ReadMem(4 bytes @ 0xE0002008) -- CPU_WriteMem(4 bytes @ 0xE0002008) -- CPU_WriteMem(4 bytes @ 0xE000ED0C) -- CPU is running -- CPU_WriteMem(4 bytes @ 0xE0002008) -- CPU_WriteMem(4 bytes @ 0xE0002000) -- CPU_ReadMem(4 bytes @ 0xE000EDFC) -- CPU_ReadMem(4 bytes @ 0xE0001000) -- CPU_WriteMem(4 bytes @ 0xE0001000) (0031ms, 0359ms total)
T2740 000:474 JLINK_ReadReg(R15 (PC))  returns 0x100010BC (0000ms, 0359ms total)
T2740 000:474 JLINK_ReadReg(XPSR)  returns 0x61000000 (0000ms, 0359ms total)
T2740 000:476 JLINK_ReadMem (0x10000FBC, 0x003C Bytes, ...) -- CPU_ReadMem(60 bytes @ 0x10000FBC) - Data: 02 02 02 01 01 01 01 01 01 01 01 01 01 01 00 00 ...  returns 0x00 (0001ms, 0360ms total)
T2740 000:478 JLINK_ReadMem (0x10000FF8, 0x0008 Bytes, ...) -- CPU_ReadMem(8 bytes @ 0x10000FF8) - Data: 01 04 00 20 00 00 00 00  returns 0x00 (0001ms, 0361ms total)
T2740 000:479 JLINK_ReadMem (0x10001000, 0x0034 Bytes, ...) -- CPU_ReadMem(64 bytes @ 0x10001000) -- Updating C cache (64 bytes @ 0x10001000) -- Read from C cache (52 bytes @ 0x10001000) - Data: 80 08 00 20 BD 10 00 10 00 00 00 00 00 00 00 00 ...  returns 0x00 (0001ms, 0362ms total)
T2740 000:480 JLINK_ReadMem (0x10001034, 0x003C Bytes, ...) -- CPU_ReadMem(64 bytes @ 0x10001040) -- Updating C cache (64 bytes @ 0x10001040) -- Read from C cache (60 bytes @ 0x10001034) - Data: AC 42 01 D1 00 F0 30 F8 7E 46 0F 3E 0F CC B6 46 ...  returns 0x00 (0002ms, 0364ms total)
T2740 000:482 JLINK_ReadMem (0x10001070, 0x003C Bytes, ...) -- CPU_ReadMem(64 bytes @ 0x10001080) -- Updating C cache (64 bytes @ 0x10001080) -- Read from C cache (60 bytes @ 0x10001070) - Data: 04 68 0C 60 70 47 00 00 00 23 00 24 00 25 00 26 ...  returns 0x00 (0001ms, 0365ms total)
T2740 000:483 JLINK_ReadMem (0x100010AC, 0x003C Bytes, ...) -- CPU_ReadMem(64 bytes @ 0x100010C0) -- Updating C cache (64 bytes @ 0x100010C0) -- Read from C cache (60 bytes @ 0x100010AC) - Data: F8 F8 03 B4 FF F7 F2 FF 03 BC 00 F0 FF F8 00 00 ...  returns 0x00 (0002ms, 0367ms total)
T2740 000:624 JLINK_ReadMem (0x48040100, 0x0008 Bytes, ...) -- CPU_ReadMem(8 bytes @ 0x48040100) - Data: 00 00 00 00 00 00 00 00  returns 0x00 (0001ms, 0368ms total)
T2740 000:625 JLINK_ReadMem (0x48040108, 0x0004 Bytes, ...) -- CPU_ReadMem(4 bytes @ 0x48040108) - Data: 00 00 00 00  returns 0x00 (0001ms, 0369ms total)
T2740 000:626 JLINK_ReadMem (0x48040114, 0x0028 Bytes, ...) -- CPU_ReadMem(40 bytes @ 0x48040114) - Data: 00 00 00 00 00 00 00 00 00 00 00 00 00 00 00 00 ...  returns 0x00 (0001ms, 0370ms total)
T2740 000:627 JLINK_ReadMem (0x4804013C, 0x0004 Bytes, ...) -- CPU_ReadMem(4 bytes @ 0x4804013C) - Data: 00 00 00 00  returns 0x00 (0001ms, 0371ms total)
T2740 000:628 JLINK_ReadMem (0x48040170, 0x0004 Bytes, ...) -- CPU_ReadMem(4 bytes @ 0x48040170) - Data: 00 00 00 00  returns 0x00 (0001ms, 0372ms total)
T2740 000:629 JLINK_ReadMem (0x480401A0, 0x0008 Bytes, ...) -- CPU_ReadMem(8 bytes @ 0x480401A0) - Data: 00 00 00 00 00 00 00 00  returns 0x00 (0000ms, 0372ms total)
T2740 000:629 JLINK_ReadMem (0x480401A8, 0x0004 Bytes, ...) -- CPU_ReadMem(4 bytes @ 0x480401A8) - Data: 00 00 00 00  returns 0x00 (0001ms, 0373ms total)
T2740 000:682 JLINK_ReadMem (0x48040200, 0x0008 Bytes, ...) -- CPU_ReadMem(8 bytes @ 0x48040200) - Data: 00 00 00 00 00 00 00 00  returns 0x00 (0001ms, 0374ms total)
T2740 000:683 JLINK_ReadMem (0x48040208, 0x0004 Bytes, ...) -- CPU_ReadMem(4 bytes @ 0x48040208) - Data: 00 00 00 00  returns 0x00 (0001ms, 0375ms total)
T2740 000:684 JLINK_ReadMem (0x48040214, 0x0028 Bytes, ...) -- CPU_ReadMem(40 bytes @ 0x48040214) - Data: 00 00 00 00 00 00 00 00 00 00 00 00 00 00 00 00 ...  returns 0x00 (0001ms, 0376ms total)
T2740 000:685 JLINK_ReadMem (0x4804023C, 0x0004 Bytes, ...) -- CPU_ReadMem(4 bytes @ 0x4804023C) - Data: 00 00 00 00  returns 0x00 (0001ms, 0377ms total)
T2740 000:686 JLINK_ReadMem (0x48040270, 0x0004 Bytes, ...) -- CPU_ReadMem(4 bytes @ 0x48040270) - Data: 00 00 00 00  returns 0x00 (0001ms, 0378ms total)
T2740 000:687 JLINK_ReadMem (0x480402A0, 0x0008 Bytes, ...) -- CPU_ReadMem(8 bytes @ 0x480402A0) - Data: 00 00 00 00 00 00 00 00  returns 0x00 (0002ms, 0380ms total)
T2740 000:689 JLINK_ReadMem (0x480402A8, 0x0004 Bytes, ...) -- CPU_ReadMem(4 bytes @ 0x480402A8) - Data: 00 00 00 00  returns 0x00 (0001ms, 0381ms total)
T2740 002:868 JLINK_ReadMem (0x48040200, 0x0008 Bytes, ...) -- CPU_ReadMem(8 bytes @ 0x48040200) - Data: 00 00 00 00 00 00 00 00  returns 0x00 (0000ms, 0381ms total)
T2740 002:868 JLINK_ReadMem (0x48040208, 0x0004 Bytes, ...) -- CPU_ReadMem(4 bytes @ 0x48040208) - Data: 00 00 00 00  returns 0x00 (0002ms, 0383ms total)
T2740 002:870 JLINK_ReadMem (0x48040214, 0x0028 Bytes, ...) -- CPU_ReadMem(40 bytes @ 0x48040214) - Data: 00 00 00 00 00 00 00 00 00 00 00 00 00 00 00 00 ...  returns 0x00 (0001ms, 0384ms total)
T2740 002:871 JLINK_ReadMem (0x4804023C, 0x0004 Bytes, ...) -- CPU_ReadMem(4 bytes @ 0x4804023C) - Data: 00 00 00 00  returns 0x00 (0001ms, 0385ms total)
T2740 002:872 JLINK_ReadMem (0x48040270, 0x0004 Bytes, ...) -- CPU_ReadMem(4 bytes @ 0x48040270) - Data: 00 00 00 00  returns 0x00 (0000ms, 0385ms total)
T2740 002:872 JLINK_ReadMem (0x480402A0, 0x0008 Bytes, ...) -- CPU_ReadMem(8 bytes @ 0x480402A0) - Data: 00 00 00 00 00 00 00 00  returns 0x00 (0001ms, 0386ms total)
T2740 002:873 JLINK_ReadMem (0x480402A8, 0x0004 Bytes, ...) -- CPU_ReadMem(4 bytes @ 0x480402A8) - Data: 00 00 00 00  returns 0x00 (0001ms, 0387ms total)
T2740 002:875 JLINK_ReadMem (0x48040100, 0x0008 Bytes, ...) -- CPU_ReadMem(8 bytes @ 0x48040100) - Data: 00 00 00 00 00 00 00 00  returns 0x00 (0001ms, 0388ms total)
T2740 002:876 JLINK_ReadMem (0x48040108, 0x0004 Bytes, ...) -- CPU_ReadMem(4 bytes @ 0x48040108) - Data: 00 00 00 00  returns 0x00 (0000ms, 0388ms total)
T2740 002:876 JLINK_ReadMem (0x48040114, 0x0028 Bytes, ...) -- CPU_ReadMem(40 bytes @ 0x48040114) - Data: 00 00 00 00 00 00 00 00 00 00 00 00 00 00 00 00 ...  returns 0x00 (0002ms, 0390ms total)
T2740 002:878 JLINK_ReadMem (0x4804013C, 0x0004 Bytes, ...) -- CPU_ReadMem(4 bytes @ 0x4804013C) - Data: 00 00 00 00  returns 0x00 (0001ms, 0391ms total)
T2740 002:879 JLINK_ReadMem (0x48040170, 0x0004 Bytes, ...) -- CPU_ReadMem(4 bytes @ 0x48040170) - Data: 00 00 00 00  returns 0x00 (0000ms, 0391ms total)
T2740 002:879 JLINK_ReadMem (0x480401A0, 0x0008 Bytes, ...) -- CPU_ReadMem(8 bytes @ 0x480401A0) - Data: 00 00 00 00 00 00 00 00  returns 0x00 (0002ms, 0393ms total)
T2740 002:881 JLINK_ReadMem (0x480401A8, 0x0004 Bytes, ...) -- CPU_ReadMem(4 bytes @ 0x480401A8) - Data: 00 00 00 00  returns 0x00 (0000ms, 0393ms total)
T2740 123:475 JLINK_ReadMem (0x10001E20, 0x003C Bytes, ...) -- CPU_ReadMem(128 bytes @ 0x10001E00) -- Updating C cache (128 bytes @ 0x10001E00) -- Read from C cache (60 bytes @ 0x10001E20) - Data: 08 48 00 68 01 28 06 D1 07 48 FF F7 D5 FC 07 48 ...  returns 0x00 (0002ms, 0395ms total)
T2740 154:802 JLINK_ReadMem (0x10001E10, 0x003C Bytes, ...) -- Read from C cache (60 bytes @ 0x10001E10) - Data: FF F7 9A FC 04 46 00 2C 01 D0 00 BF FE E7 10 E0 ...  returns 0x00 (0000ms, 0395ms total)
T2740 224:899 JLINK_SetResetType(JLINKARM_CM3_RESET_TYPE_NORMAL)  returns JLINKARM_CM3_RESET_TYPE_NORMAL (0000ms, 0395ms total)
T2740 224:899 JLINK_Reset()Performing XMC1000 reset -- CPU_ReadMem(4 bytes @ 0x10001004) -- CPU_WriteMem(4 bytes @ 0xE0002000) -- CPU_ReadMem(4 bytes @ 0xE0002008) -- CPU_WriteMem(4 bytes @ 0xE0002008) -- CPU_WriteMem(4 bytes @ 0xE000ED0C) -- CPU is running -- CPU_WriteMem(4 bytes @ 0xE0002008) -- CPU_WriteMem(4 bytes @ 0xE0002000) -- CPU_ReadMem(4 bytes @ 0xE000EDFC) -- CPU_ReadMem(4 bytes @ 0xE0001000) -- CPU_WriteMem(4 bytes @ 0xE0001000) (0030ms, 0425ms total)
T2740 224:929 JLINK_ReadReg(R15 (PC))  returns 0x100010BC (0000ms, 0425ms total)
T2740 224:929 JLINK_ReadReg(XPSR)  returns 0x61000000 (0000ms, 0425ms total)
T2740 224:933 JLINK_ReadMem (0x10000FBC, 0x003C Bytes, ...) -- CPU_ReadMem(60 bytes @ 0x10000FBC) - Data: 02 02 02 01 01 01 01 01 01 01 01 01 01 01 00 00 ...  returns 0x00 (0001ms, 0426ms total)
T2740 224:934 JLINK_ReadMem (0x10000FF8, 0x0008 Bytes, ...) -- CPU_ReadMem(8 bytes @ 0x10000FF8) - Data: 01 04 00 20 00 00 00 00  returns 0x00 (0001ms, 0427ms total)
T2740 224:935 JLINK_ReadMem (0x10001000, 0x0034 Bytes, ...) -- CPU_ReadMem(64 bytes @ 0x10001000) -- Updating C cache (64 bytes @ 0x10001000) -- Read from C cache (52 bytes @ 0x10001000) - Data: 80 08 00 20 BD 10 00 10 00 00 00 00 00 00 00 00 ...  returns 0x00 (0001ms, 0428ms total)
T2740 224:936 JLINK_ReadMem (0x10001034, 0x003C Bytes, ...) -- CPU_ReadMem(64 bytes @ 0x10001040) -- Updating C cache (64 bytes @ 0x10001040) -- Read from C cache (60 bytes @ 0x10001034) - Data: AC 42 01 D1 00 F0 30 F8 7E 46 0F 3E 0F CC B6 46 ...  returns 0x00 (0002ms, 0430ms total)
T2740 224:938 JLINK_ReadMem (0x10001070, 0x003C Bytes, ...) -- CPU_ReadMem(64 bytes @ 0x10001080) -- Updating C cache (64 bytes @ 0x10001080) -- Read from C cache (60 bytes @ 0x10001070) - Data: 04 68 0C 60 70 47 00 00 00 23 00 24 00 25 00 26 ...  returns 0x00 (0001ms, 0431ms total)
T2740 224:939 JLINK_ReadMem (0x100010AC, 0x003C Bytes, ...) -- CPU_ReadMem(64 bytes @ 0x100010C0) -- Updating C cache (64 bytes @ 0x100010C0) -- Read from C cache (60 bytes @ 0x100010AC) - Data: F8 F8 03 B4 FF F7 F2 FF 03 BC 00 F0 FF F8 00 00 ...  returns 0x00 (0002ms, 0433ms total)
T13A0 234:438 JLINK_Go() -- CPU_ReadMem(4 bytes @ 0xE0001000) -- CPU_WriteMem(4 bytes @ 0xE0001000) -- CPU_WriteMem(4 bytes @ 0xE0001004) (0003ms, 0436ms total)
T13A0 234:543 JLINK_IsHalted()  returns FALSE (0000ms, 0436ms total)
T13A0 234:644 JLINK_IsHalted()  returns FALSE (0000ms, 0436ms total)
T13A0 234:745 JLINK_IsHalted()  returns FALSE (0000ms, 0436ms total)
T13A0 234:846 JLINK_IsHalted()  returns FALSE (0000ms, 0436ms total)
T2740 234:949 JLINK_ReadMem (0x48040200, 0x0008 Bytes, ...) -- CPU is running -- CPU_ReadMem(8 bytes @ 0x48040200) - Data: 11 00 09 00 90 00 00 00  returns 0x00 (0000ms, 0436ms total)
T2740 234:949 JLINK_ReadMem (0x48040208, 0x0004 Bytes, ...) -- CPU is running -- CPU_ReadMem(4 bytes @ 0x48040208) - Data: 01 00 00 00  returns 0x00 (0001ms, 0437ms total)
T2740 234:950 JLINK_ReadMem (0x48040214, 0x0028 Bytes, ...) -- CPU is running -- CPU_ReadMem(40 bytes @ 0x48040214) - Data: 68 00 00 00 00 00 00 00 00 00 00 00 00 00 00 00 ...  returns 0x00 (0001ms, 0438ms total)
T2740 234:951 JLINK_ReadMem (0x4804023C, 0x0004 Bytes, ...) -- CPU is running -- CPU_ReadMem(4 bytes @ 0x4804023C) - Data: 00 00 00 00  returns 0x00 (0001ms, 0439ms total)
T2740 234:952 JLINK_ReadMem (0x48040270, 0x0004 Bytes, ...) -- CPU is running -- CPU_ReadMem(4 bytes @ 0x48040270) - Data: FF 77 00 00  returns 0x00 (0001ms, 0440ms total)
T2740 234:953 JLINK_ReadMem (0x480402A0, 0x0008 Bytes, ...) -- CPU is running -- CPU_ReadMem(8 bytes @ 0x480402A0) - Data: 01 00 00 00 00 01 00 00  returns 0x00 (0001ms, 0441ms total)
T2740 234:954 JLINK_ReadMem (0x480402A8, 0x0004 Bytes, ...) -- CPU is running -- CPU_ReadMem(4 bytes @ 0x480402A8) - Data: 00 02 00 00  returns 0x00 (0001ms, 0442ms total)
T2740 235:021 JLINK_ReadMem (0x48040100, 0x0008 Bytes, ...) -- CPU is running -- CPU_ReadMem(8 bytes @ 0x48040100) - Data: 01 00 42 00 00 40 00 00  returns 0x00 (0000ms, 0442ms total)
T2740 235:021 JLINK_ReadMem (0x48040108, 0x0004 Bytes, ...) -- CPU is running -- CPU_ReadMem(4 bytes @ 0x48040108) - Data: 01 00 00 00  returns 0x00 (0001ms, 0443ms total)
T2740 235:022 JLINK_ReadMem (0x48040114, 0x0028 Bytes, ...) -- CPU is running -- CPU_ReadMem(40 bytes @ 0x48040114) - Data: 00 00 00 00 00 00 00 00 00 00 00 00 00 00 00 00 ...  returns 0x00 (0001ms, 0444ms total)
T2740 235:023 JLINK_ReadMem (0x4804013C, 0x0004 Bytes, ...) -- CPU is running -- CPU_ReadMem(4 bytes @ 0x4804013C) - Data: 06 00 00 00  returns 0x00 (0001ms, 0445ms total)
T2740 235:024 JLINK_ReadMem (0x48040170, 0x0004 Bytes, ...) -- CPU is running -- CPU_ReadMem(4 bytes @ 0x48040170) - Data: 00 00 00 00  returns 0x00 (0001ms, 0446ms total)
T2740 235:025 JLINK_ReadMem (0x480401A0, 0x0008 Bytes, ...) -- CPU is running -- CPU_ReadMem(8 bytes @ 0x480401A0) - Data: 00 00 00 00 04 01 00 00  returns 0x00 (0001ms, 0447ms total)
T2740 235:026 JLINK_ReadMem (0x480401A8, 0x0004 Bytes, ...) -- CPU is running -- CPU_ReadMem(4 bytes @ 0x480401A8) - Data: 04 00 00 00  returns 0x00 (0001ms, 0448ms total)
T13A0 235:029 JLINK_IsHalted()  returns FALSE (0000ms, 0448ms total)
T13A0 235:131 JLINK_IsHalted()  returns FALSE (0000ms, 0448ms total)
T13A0 235:232 JLINK_IsHalted()  returns FALSE (0000ms, 0448ms total)
T13A0 235:333 JLINK_IsHalted()  returns FALSE (0000ms, 0448ms total)
T13A0 235:434 JLINK_IsHalted()  returns FALSE (0000ms, 0448ms total)
T2740 235:535 JLINK_ReadMem (0x48040200, 0x0008 Bytes, ...) -- CPU is running -- CPU_ReadMem(8 bytes @ 0x48040200) - Data: 11 00 09 00 90 00 00 00  returns 0x00 (0001ms, 0449ms total)
T2740 235:536 JLINK_ReadMem (0x48040208, 0x0004 Bytes, ...) -- CPU is running -- CPU_ReadMem(4 bytes @ 0x48040208) - Data: 01 00 00 00  returns 0x00 (0001ms, 0450ms total)
T2740 235:537 JLINK_ReadMem (0x48040214, 0x0028 Bytes, ...) -- CPU is running -- CPU_ReadMem(40 bytes @ 0x48040214) - Data: 68 00 00 00 00 00 00 00 00 00 00 00 00 00 00 00 ...  returns 0x00 (0001ms, 0451ms total)
T2740 235:538 JLINK_ReadMem (0x4804023C, 0x0004 Bytes, ...) -- CPU is running -- CPU_ReadMem(4 bytes @ 0x4804023C) - Data: 00 00 00 00  returns 0x00 (0001ms, 0452ms total)
T2740 235:539 JLINK_ReadMem (0x48040270, 0x0004 Bytes, ...) -- CPU is running -- CPU_ReadMem(4 bytes @ 0x48040270) - Data: 97 B1 00 00  returns 0x00 (0000ms, 0452ms total)
T2740 235:539 JLINK_ReadMem (0x480402A0, 0x0008 Bytes, ...) -- CPU is running -- CPU_ReadMem(8 bytes @ 0x480402A0) - Data: 01 00 00 00 00 01 00 00  returns 0x00 (0001ms, 0453ms total)
T2740 235:540 JLINK_ReadMem (0x480402A8, 0x0004 Bytes, ...) -- CPU is running -- CPU_ReadMem(4 bytes @ 0x480402A8) - Data: 00 02 00 00  returns 0x00 (0002ms, 0455ms total)
T2740 235:548 JLINK_ReadMem (0x48040100, 0x0008 Bytes, ...) -- CPU is running -- CPU_ReadMem(8 bytes @ 0x48040100) - Data: 01 00 42 00 00 40 00 00  returns 0x00 (0001ms, 0456ms total)
T2740 235:549 JLINK_ReadMem (0x48040108, 0x0004 Bytes, ...) -- CPU is running -- CPU_ReadMem(4 bytes @ 0x48040108) - Data: 01 00 00 00  returns 0x00 (0001ms, 0457ms total)
T2740 235:551 JLINK_ReadMem (0x48040114, 0x0028 Bytes, ...) -- CPU is running -- CPU_ReadMem(40 bytes @ 0x48040114) - Data: 00 00 00 00 00 00 00 00 00 00 00 00 00 00 00 00 ...  returns 0x00 (0001ms, 0458ms total)
T2740 235:552 JLINK_ReadMem (0x4804013C, 0x0004 Bytes, ...) -- CPU is running -- CPU_ReadMem(4 bytes @ 0x4804013C) - Data: 06 00 00 00  returns 0x00 (0000ms, 0458ms total)
T2740 235:553 JLINK_ReadMem (0x48040170, 0x0004 Bytes, ...) -- CPU is running -- CPU_ReadMem(4 bytes @ 0x48040170) - Data: 00 00 00 00  returns 0x00 (0000ms, 0459ms total)
T2740 235:553 JLINK_ReadMem (0x480401A0, 0x0008 Bytes, ...) -- CPU is running -- CPU_ReadMem(8 bytes @ 0x480401A0) - Data: 00 00 00 00 04 01 00 00  returns 0x00 (0001ms, 0460ms total)
T2740 235:554 JLINK_ReadMem (0x480401A8, 0x0004 Bytes, ...) -- CPU is running -- CPU_ReadMem(4 bytes @ 0x480401A8) - Data: 04 00 00 00  returns 0x00 (0001ms, 0461ms total)
T13A0 235:556 JLINK_IsHalted()  returns FALSE (0000ms, 0461ms total)
T13A0 235:658 JLINK_IsHalted()  returns FALSE (0000ms, 0461ms total)
T13A0 235:759 JLINK_IsHalted()  returns FALSE (0000ms, 0461ms total)
T13A0 235:860 JLINK_IsHalted()  returns FALSE (0000ms, 0461ms total)
T13A0 235:961 JLINK_IsHalted()  returns FALSE (0000ms, 0461ms total)
T2740 236:062 JLINK_ReadMem (0x48040200, 0x0008 Bytes, ...) -- CPU is running -- CPU_ReadMem(8 bytes @ 0x48040200) - Data: 11 00 09 00 90 00 00 00  returns 0x00 (0000ms, 0461ms total)
T2740 236:062 JLINK_ReadMem (0x48040208, 0x0004 Bytes, ...) -- CPU is running -- CPU_ReadMem(4 bytes @ 0x48040208) - Data: 01 00 00 00  returns 0x00 (0001ms, 0462ms total)
T2740 236:063 JLINK_ReadMem (0x48040214, 0x0028 Bytes, ...) -- CPU is running -- CPU_ReadMem(40 bytes @ 0x48040214) - Data: 68 00 00 00 00 00 00 00 00 00 00 00 00 00 00 00 ...  returns 0x00 (0002ms, 0464ms total)
T2740 236:065 JLINK_ReadMem (0x4804023C, 0x0004 Bytes, ...) -- CPU is running -- CPU_ReadMem(4 bytes @ 0x4804023C) - Data: 00 00 00 00  returns 0x00 (0001ms, 0465ms total)
T2740 236:066 JLINK_ReadMem (0x48040270, 0x0004 Bytes, ...) -- CPU is running -- CPU_ReadMem(4 bytes @ 0x48040270) - Data: A9 62 00 00  returns 0x00 (0000ms, 0465ms total)
T2740 236:066 JLINK_ReadMem (0x480402A0, 0x0008 Bytes, ...) -- CPU is running -- CPU_ReadMem(8 bytes @ 0x480402A0) - Data: 01 00 00 00 00 01 00 00  returns 0x00 (0001ms, 0466ms total)
T2740 236:067 JLINK_ReadMem (0x480402A8, 0x0004 Bytes, ...) -- CPU is running -- CPU_ReadMem(4 bytes @ 0x480402A8) - Data: 00 02 00 00  returns 0x00 (0001ms, 0467ms total)
T2740 236:075 JLINK_ReadMem (0x48040100, 0x0008 Bytes, ...) -- CPU is running -- CPU_ReadMem(8 bytes @ 0x48040100) - Data: 01 00 42 00 00 40 00 00  returns 0x00 (0001ms, 0468ms total)
T2740 236:076 JLINK_ReadMem (0x48040108, 0x0004 Bytes, ...) -- CPU is running -- CPU_ReadMem(4 bytes @ 0x48040108) - Data: 01 00 00 00  returns 0x00 (0001ms, 0469ms total)
T2740 236:077 JLINK_ReadMem (0x48040114, 0x0028 Bytes, ...) -- CPU is running -- CPU_ReadMem(40 bytes @ 0x48040114) - Data: 00 00 00 00 00 00 00 00 00 00 00 00 00 00 00 00 ...  returns 0x00 (0001ms, 0470ms total)
T2740 236:078 JLINK_ReadMem (0x4804013C, 0x0004 Bytes, ...) -- CPU is running -- CPU_ReadMem(4 bytes @ 0x4804013C) - Data: 06 00 00 00  returns 0x00 (0002ms, 0472ms total)
T2740 236:080 JLINK_ReadMem (0x48040170, 0x0004 Bytes, ...) -- CPU is running -- CPU_ReadMem(4 bytes @ 0x48040170) - Data: 00 00 00 00  returns 0x00 (0001ms, 0473ms total)
T2740 236:081 JLINK_ReadMem (0x480401A0, 0x0008 Bytes, ...) -- CPU is running -- CPU_ReadMem(8 bytes @ 0x480401A0) - Data: 00 00 00 00 04 01 00 00  returns 0x00 (0000ms, 0473ms total)
T2740 236:081 JLINK_ReadMem (0x480401A8, 0x0004 Bytes, ...) -- CPU is running -- CPU_ReadMem(4 bytes @ 0x480401A8) - Data: 04 00 00 00  returns 0x00 (0001ms, 0474ms total)
T13A0 236:083 JLINK_IsHalted()  returns FALSE (0001ms, 0475ms total)
T13A0 236:184 JLINK_IsHalted()  returns FALSE (0001ms, 0475ms total)
T13A0 236:285 JLINK_IsHalted()  returns FALSE (0001ms, 0475ms total)
T13A0 236:386 JLINK_IsHalted()  returns FALSE (0000ms, 0474ms total)
T13A0 236:487 JLINK_IsHalted()  returns FALSE (0000ms, 0474ms total)
T2740 236:587 JLINK_ReadMem (0x48040200, 0x0008 Bytes, ...) -- CPU is running -- CPU_ReadMem(8 bytes @ 0x48040200) - Data: 11 00 09 00 90 00 00 00  returns 0x00 (0001ms, 0475ms total)
T2740 236:588 JLINK_ReadMem (0x48040208, 0x0004 Bytes, ...) -- CPU is running -- CPU_ReadMem(4 bytes @ 0x48040208) - Data: 01 00 00 00  returns 0x00 (0001ms, 0476ms total)
T2740 236:589 JLINK_ReadMem (0x48040214, 0x0028 Bytes, ...) -- CPU is running -- CPU_ReadMem(40 bytes @ 0x48040214) - Data: 68 00 00 00 00 00 00 00 00 00 00 00 00 00 00 00 ...  returns 0x00 (0001ms, 0477ms total)
T2740 236:590 JLINK_ReadMem (0x4804023C, 0x0004 Bytes, ...) -- CPU is running -- CPU_ReadMem(4 bytes @ 0x4804023C) - Data: 00 00 00 00  returns 0x00 (0001ms, 0478ms total)
T2740 236:591 JLINK_ReadMem (0x48040270, 0x0004 Bytes, ...) -- CPU is running -- CPU_ReadMem(4 bytes @ 0x48040270) - Data: D1 EB 00 00  returns 0x00 (0001ms, 0479ms total)
T2740 236:592 JLINK_ReadMem (0x480402A0, 0x0008 Bytes, ...) -- CPU is running -- CPU_ReadMem(8 bytes @ 0x480402A0) - Data: 01 00 00 00 00 01 00 00  returns 0x00 (0000ms, 0479ms total)
T2740 236:592 JLINK_ReadMem (0x480402A8, 0x0004 Bytes, ...) -- CPU is running -- CPU_ReadMem(4 bytes @ 0x480402A8) - Data: 00 02 00 00  returns 0x00 (0001ms, 0480ms total)
T2740 236:600 JLINK_ReadMem (0x48040100, 0x0008 Bytes, ...) -- CPU is running -- CPU_ReadMem(8 bytes @ 0x48040100) - Data: 01 00 42 00 00 40 00 00  returns 0x00 (0001ms, 0481ms total)
T2740 236:601 JLINK_ReadMem (0x48040108, 0x0004 Bytes, ...) -- CPU is running -- CPU_ReadMem(4 bytes @ 0x48040108) - Data: 01 00 00 00  returns 0x00 (0001ms, 0482ms total)
T2740 236:602 JLINK_ReadMem (0x48040114, 0x0028 Bytes, ...) -- CPU is running -- CPU_ReadMem(40 bytes @ 0x48040114) - Data: 00 00 00 00 00 00 00 00 00 00 00 00 00 00 00 00 ...  returns 0x00 (0001ms, 0483ms total)
T2740 236:603 JLINK_ReadMem (0x4804013C, 0x0004 Bytes, ...) -- CPU is running -- CPU_ReadMem(4 bytes @ 0x4804013C) - Data: 06 00 00 00  returns 0x00 (0001ms, 0484ms total)
T2740 236:604 JLINK_ReadMem (0x48040170, 0x0004 Bytes, ...) -- CPU is running -- CPU_ReadMem(4 bytes @ 0x48040170) - Data: 00 00 00 00  returns 0x00 (0001ms, 0485ms total)
T2740 236:605 JLINK_ReadMem (0x480401A0, 0x0008 Bytes, ...) -- CPU is running -- CPU_ReadMem(8 bytes @ 0x480401A0) - Data: 00 00 00 00 04 01 00 00  returns 0x00 (0001ms, 0486ms total)
T2740 236:606 JLINK_ReadMem (0x480401A8, 0x0004 Bytes, ...) -- CPU is running -- CPU_ReadMem(4 bytes @ 0x480401A8) - Data: 04 00 00 00  returns 0x00 (0001ms, 0487ms total)
T13A0 236:608 JLINK_IsHalted()  returns FALSE (0000ms, 0487ms total)
T13A0 236:710 JLINK_IsHalted()  returns FALSE (0001ms, 0488ms total)
T13A0 236:811 JLINK_IsHalted()  returns FALSE (0000ms, 0487ms total)
T13A0 236:912 JLINK_IsHalted()  returns FALSE (0000ms, 0487ms total)
T13A0 237:013 JLINK_IsHalted()  returns FALSE (0000ms, 0487ms total)
T2740 237:114 JLINK_ReadMem (0x48040200, 0x0008 Bytes, ...) -- CPU is running -- CPU_ReadMem(8 bytes @ 0x48040200) - Data: 11 00 09 00 90 00 00 00  returns 0x00 (0001ms, 0488ms total)
T2740 237:115 JLINK_ReadMem (0x48040208, 0x0004 Bytes, ...) -- CPU is running -- CPU_ReadMem(4 bytes @ 0x48040208) - Data: 01 00 00 00  returns 0x00 (0001ms, 0489ms total)
T2740 237:116 JLINK_ReadMem (0x48040214, 0x0028 Bytes, ...) -- CPU is running -- CPU_ReadMem(40 bytes @ 0x48040214) - Data: 68 00 00 00 00 00 00 00 00 00 00 00 00 00 00 00 ...  returns 0x00 (0001ms, 0490ms total)
T2740 237:117 JLINK_ReadMem (0x4804023C, 0x0004 Bytes, ...) -- CPU is running -- CPU_ReadMem(4 bytes @ 0x4804023C) - Data: 00 00 00 00  returns 0x00 (0001ms, 0491ms total)
T2740 237:118 JLINK_ReadMem (0x48040270, 0x0004 Bytes, ...) -- CPU is running -- CPU_ReadMem(4 bytes @ 0x48040270) - Data: B3 30 00 00  returns 0x00 (0001ms, 0492ms total)
T2740 237:119 JLINK_ReadMem (0x480402A0, 0x0008 Bytes, ...) -- CPU is running -- CPU_ReadMem(8 bytes @ 0x480402A0) - Data: 01 00 00 00 00 01 00 00  returns 0x00 (0001ms, 0493ms total)
T2740 237:120 JLINK_ReadMem (0x480402A8, 0x0004 Bytes, ...) -- CPU is running -- CPU_ReadMem(4 bytes @ 0x480402A8) - Data: 00 02 00 00  returns 0x00 (0001ms, 0494ms total)
T2740 237:128 JLINK_ReadMem (0x48040100, 0x0008 Bytes, ...) -- CPU is running -- CPU_ReadMem(8 bytes @ 0x48040100) - Data: 01 00 42 00 00 40 00 00  returns 0x00 (0000ms, 0494ms total)
T2740 237:128 JLINK_ReadMem (0x48040108, 0x0004 Bytes, ...) -- CPU is running -- CPU_ReadMem(4 bytes @ 0x48040108) - Data: 01 00 00 00  returns 0x00 (0001ms, 0495ms total)
T2740 237:129 JLINK_ReadMem (0x48040114, 0x0028 Bytes, ...) -- CPU is running -- CPU_ReadMem(40 bytes @ 0x48040114) - Data: 00 00 00 00 00 00 00 00 00 00 00 00 00 00 00 00 ...  returns 0x00 (0001ms, 0496ms total)
T2740 237:130 JLINK_ReadMem (0x4804013C, 0x0004 Bytes, ...) -- CPU is running -- CPU_ReadMem(4 bytes @ 0x4804013C) - Data: 06 00 00 00  returns 0x00 (0002ms, 0498ms total)
T2740 237:132 JLINK_ReadMem (0x48040170, 0x0004 Bytes, ...) -- CPU is running -- CPU_ReadMem(4 bytes @ 0x48040170) - Data: 00 00 00 00  returns 0x00 (0001ms, 0499ms total)
T2740 237:133 JLINK_ReadMem (0x480401A0, 0x0008 Bytes, ...) -- CPU is running -- CPU_ReadMem(8 bytes @ 0x480401A0) - Data: 00 00 00 00 04 01 00 00  returns 0x00 (0001ms, 0500ms total)
T2740 237:134 JLINK_ReadMem (0x480401A8, 0x0004 Bytes, ...) -- CPU is running -- CPU_ReadMem(4 bytes @ 0x480401A8) - Data: 04 00 00 00  returns 0x00 (0000ms, 0500ms total)
T13A0 237:135 JLINK_IsHalted()  returns FALSE (0001ms, 0501ms total)
T13A0 237:238 JLINK_IsHalted()  returns FALSE (0000ms, 0500ms total)
T13A0 237:339 JLINK_IsHalted()  returns FALSE (0000ms, 0500ms total)
T13A0 237:440 JLINK_IsHalted()  returns FALSE (0000ms, 0500ms total)
T13A0 237:541 JLINK_IsHalted()  returns FALSE (0000ms, 0500ms total)
T2740 237:642 JLINK_ReadMem (0x48040200, 0x0008 Bytes, ...) -- CPU is running -- CPU_ReadMem(8 bytes @ 0x48040200) - Data: 11 00 09 00 90 00 00 00  returns 0x00 (0001ms, 0501ms total)
T2740 237:643 JLINK_ReadMem (0x48040208, 0x0004 Bytes, ...) -- CPU is running -- CPU_ReadMem(4 bytes @ 0x48040208) - Data: 01 00 00 00  returns 0x00 (0001ms, 0502ms total)
T2740 237:644 JLINK_ReadMem (0x48040214, 0x0028 Bytes, ...) -- CPU is running -- CPU_ReadMem(40 bytes @ 0x48040214) - Data: 68 00 00 00 00 00 00 00 00 00 00 00 00 00 00 00 ...  returns 0x00 (0001ms, 0503ms total)
T2740 237:645 JLINK_ReadMem (0x4804023C, 0x0004 Bytes, ...) -- CPU is running -- CPU_ReadMem(4 bytes @ 0x4804023C) - Data: 00 00 00 00  returns 0x00 (0001ms, 0504ms total)
T2740 237:646 JLINK_ReadMem (0x48040270, 0x0004 Bytes, ...) -- CPU is running -- CPU_ReadMem(4 bytes @ 0x48040270) - Data: B1 7D 00 00  returns 0x00 (0000ms, 0504ms total)
T2740 237:647 JLINK_ReadMem (0x480402A0, 0x0008 Bytes, ...) -- CPU is running -- CPU_ReadMem(8 bytes @ 0x480402A0) - Data: 01 00 00 00 00 01 00 00  returns 0x00 (0001ms, 0505ms total)
T2740 237:648 JLINK_ReadMem (0x480402A8, 0x0004 Bytes, ...) -- CPU is running -- CPU_ReadMem(4 bytes @ 0x480402A8) - Data: 00 02 00 00  returns 0x00 (0000ms, 0505ms total)
T2740 237:655 JLINK_ReadMem (0x48040100, 0x0008 Bytes, ...) -- CPU is running -- CPU_ReadMem(8 bytes @ 0x48040100) - Data: 01 00 42 00 00 40 00 00  returns 0x00 (0001ms, 0506ms total)
T2740 237:656 JLINK_ReadMem (0x48040108, 0x0004 Bytes, ...) -- CPU is running -- CPU_ReadMem(4 bytes @ 0x48040108) - Data: 01 00 00 00  returns 0x00 (0001ms, 0507ms total)
T2740 237:657 JLINK_ReadMem (0x48040114, 0x0028 Bytes, ...) -- CPU is running -- CPU_ReadMem(40 bytes @ 0x48040114) - Data: 00 00 00 00 00 00 00 00 00 00 00 00 00 00 00 00 ...  returns 0x00 (0001ms, 0508ms total)
T2740 237:658 JLINK_ReadMem (0x4804013C, 0x0004 Bytes, ...) -- CPU is running -- CPU_ReadMem(4 bytes @ 0x4804013C) - Data: 06 00 00 00  returns 0x00 (0001ms, 0509ms total)
T2740 237:659 JLINK_ReadMem (0x48040170, 0x0004 Bytes, ...) -- CPU is running -- CPU_ReadMem(4 bytes @ 0x48040170) - Data: 00 00 00 00  returns 0x00 (0001ms, 0510ms total)
T2740 237:660 JLINK_ReadMem (0x480401A0, 0x0008 Bytes, ...) -- CPU is running -- CPU_ReadMem(8 bytes @ 0x480401A0) - Data: 00 00 00 00 04 01 00 00  returns 0x00 (0001ms, 0511ms total)
T2740 237:661 JLINK_ReadMem (0x480401A8, 0x0004 Bytes, ...) -- CPU is running -- CPU_ReadMem(4 bytes @ 0x480401A8) - Data: 04 00 00 00  returns 0x00 (0001ms, 0512ms total)
T13A0 237:663 JLINK_IsHalted()  returns FALSE (0000ms, 0512ms total)
T13A0 237:765 JLINK_IsHalted()  returns FALSE (0000ms, 0512ms total)
T13A0 237:866 JLINK_IsHalted()  returns FALSE (0000ms, 0512ms total)
T13A0 237:967 JLINK_IsHalted()  returns FALSE (0000ms, 0512ms total)
T13A0 238:068 JLINK_IsHalted()  returns FALSE (0000ms, 0512ms total)
T2740 238:169 JLINK_ReadMem (0x48040200, 0x0008 Bytes, ...) -- CPU is running -- CPU_ReadMem(8 bytes @ 0x48040200) - Data: 11 00 09 00 90 00 00 00  returns 0x00 (0001ms, 0513ms total)
T2740 238:170 JLINK_ReadMem (0x48040208, 0x0004 Bytes, ...) -- CPU is running -- CPU_ReadMem(4 bytes @ 0x48040208) - Data: 01 00 00 00  returns 0x00 (0000ms, 0513ms total)
T2740 238:170 JLINK_ReadMem (0x48040214, 0x0028 Bytes, ...) -- CPU is running -- CPU_ReadMem(40 bytes @ 0x48040214) - Data: 68 00 00 00 00 00 00 00 00 00 00 00 00 00 00 00 ...  returns 0x00 (0002ms, 0515ms total)
T2740 238:172 JLINK_ReadMem (0x4804023C, 0x0004 Bytes, ...) -- CPU is running -- CPU_ReadMem(4 bytes @ 0x4804023C) - Data: 00 00 00 00  returns 0x00 (0001ms, 0516ms total)
T2740 238:173 JLINK_ReadMem (0x48040270, 0x0004 Bytes, ...) -- CPU is running -- CPU_ReadMem(4 bytes @ 0x48040270) - Data: 75 32 00 00  returns 0x00 (0000ms, 0516ms total)
T2740 238:173 JLINK_ReadMem (0x480402A0, 0x0008 Bytes, ...) -- CPU is running -- CPU_ReadMem(8 bytes @ 0x480402A0) - Data: 01 00 00 00 00 01 00 00  returns 0x00 (0001ms, 0517ms total)
T2740 238:174 JLINK_ReadMem (0x480402A8, 0x0004 Bytes, ...) -- CPU is running -- CPU_ReadMem(4 bytes @ 0x480402A8) - Data: 00 02 00 00  returns 0x00 (0001ms, 0518ms total)
T2740 238:183 JLINK_ReadMem (0x48040100, 0x0008 Bytes, ...) -- CPU is running -- CPU_ReadMem(8 bytes @ 0x48040100) - Data: 01 00 42 00 00 40 00 00  returns 0x00 (0000ms, 0518ms total)
T2740 238:183 JLINK_ReadMem (0x48040108, 0x0004 Bytes, ...) -- CPU is running -- CPU_ReadMem(4 bytes @ 0x48040108) - Data: 01 00 00 00  returns 0x00 (0001ms, 0519ms total)
T2740 238:184 JLINK_ReadMem (0x48040114, 0x0028 Bytes, ...) -- CPU is running -- CPU_ReadMem(40 bytes @ 0x48040114) - Data: 00 00 00 00 00 00 00 00 00 00 00 00 00 00 00 00 ...  returns 0x00 (0002ms, 0521ms total)
T2740 238:186 JLINK_ReadMem (0x4804013C, 0x0004 Bytes, ...) -- CPU is running -- CPU_ReadMem(4 bytes @ 0x4804013C) - Data: 06 00 00 00  returns 0x00 (0000ms, 0521ms total)
T2740 238:186 JLINK_ReadMem (0x48040170, 0x0004 Bytes, ...) -- CPU is running -- CPU_ReadMem(4 bytes @ 0x48040170) - Data: 00 00 00 00  returns 0x00 (0001ms, 0522ms total)
T2740 238:187 JLINK_ReadMem (0x480401A0, 0x0008 Bytes, ...) -- CPU is running -- CPU_ReadMem(8 bytes @ 0x480401A0) - Data: 00 00 00 00 04 01 00 00  returns 0x00 (0001ms, 0523ms total)
T2740 238:188 JLINK_ReadMem (0x480401A8, 0x0004 Bytes, ...) -- CPU is running -- CPU_ReadMem(4 bytes @ 0x480401A8) - Data: 04 00 00 00  returns 0x00 (0001ms, 0524ms total)
T13A0 238:190 JLINK_IsHalted()  returns FALSE (0000ms, 0524ms total)
T13A0 238:291 JLINK_IsHalted()  returns FALSE (0000ms, 0524ms total)
T13A0 238:392 JLINK_IsHalted()  returns FALSE (0000ms, 0524ms total)
T13A0 238:492 JLINK_IsHalted()  returns FALSE (0001ms, 0525ms total)
T13A0 238:594 JLINK_IsHalted()  returns FALSE (0000ms, 0524ms total)
T2740 238:695 JLINK_ReadMem (0x48040200, 0x0008 Bytes, ...) -- CPU is running -- CPU_ReadMem(8 bytes @ 0x48040200) - Data: 11 00 09 00 90 00 00 00  returns 0x00 (0000ms, 0524ms total)
T2740 238:695 JLINK_ReadMem (0x48040208, 0x0004 Bytes, ...) -- CPU is running -- CPU_ReadMem(4 bytes @ 0x48040208) - Data: 01 00 00 00  returns 0x00 (0001ms, 0525ms total)
T2740 238:696 JLINK_ReadMem (0x48040214, 0x0028 Bytes, ...) -- CPU is running -- CPU_ReadMem(40 bytes @ 0x48040214) - Data: 68 00 00 00 00 00 00 00 00 00 00 00 00 00 00 00 ...  returns 0x00 (0001ms, 0526ms total)
T2740 238:697 JLINK_ReadMem (0x4804023C, 0x0004 Bytes, ...) -- CPU is running -- CPU_ReadMem(4 bytes @ 0x4804023C) - Data: 00 00 00 00  returns 0x00 (0001ms, 0527ms total)
T2740 238:698 JLINK_ReadMem (0x48040270, 0x0004 Bytes, ...) -- CPU is running -- CPU_ReadMem(4 bytes @ 0x48040270) - Data: AD 73 00 00  returns 0x00 (0001ms, 0528ms total)
T2740 238:699 JLINK_ReadMem (0x480402A0, 0x0008 Bytes, ...) -- CPU is running -- CPU_ReadMem(8 bytes @ 0x480402A0) - Data: 01 00 00 00 00 01 00 00  returns 0x00 (0001ms, 0529ms total)
T2740 238:700 JLINK_ReadMem (0x480402A8, 0x0004 Bytes, ...) -- CPU is running -- CPU_ReadMem(4 bytes @ 0x480402A8) - Data: 00 02 00 00  returns 0x00 (0001ms, 0530ms total)
T2740 238:707 JLINK_ReadMem (0x48040100, 0x0008 Bytes, ...) -- CPU is running -- CPU_ReadMem(8 bytes @ 0x48040100) - Data: 01 00 42 00 00 40 00 00  returns 0x00 (0001ms, 0531ms total)
T2740 238:708 JLINK_ReadMem (0x48040108, 0x0004 Bytes, ...) -- CPU is running -- CPU_ReadMem(4 bytes @ 0x48040108) - Data: 01 00 00 00  returns 0x00 (0001ms, 0532ms total)
T2740 238:709 JLINK_ReadMem (0x48040114, 0x0028 Bytes, ...) -- CPU is running -- CPU_ReadMem(40 bytes @ 0x48040114) - Data: 00 00 00 00 00 00 00 00 00 00 00 00 00 00 00 00 ...  returns 0x00 (0001ms, 0533ms total)
T2740 238:710 JLINK_ReadMem (0x4804013C, 0x0004 Bytes, ...) -- CPU is running -- CPU_ReadMem(4 bytes @ 0x4804013C) - Data: 06 00 00 00  returns 0x00 (0001ms, 0534ms total)
T2740 238:711 JLINK_ReadMem (0x48040170, 0x0004 Bytes, ...) -- CPU is running -- CPU_ReadMem(4 bytes @ 0x48040170) - Data: 00 00 00 00  returns 0x00 (0001ms, 0535ms total)
T2740 238:712 JLINK_ReadMem (0x480401A0, 0x0008 Bytes, ...) -- CPU is running -- CPU_ReadMem(8 bytes @ 0x480401A0) - Data: 00 00 00 00 04 01 00 00  returns 0x00 (0001ms, 0536ms total)
T2740 238:713 JLINK_ReadMem (0x480401A8, 0x0004 Bytes, ...) -- CPU is running -- CPU_ReadMem(4 bytes @ 0x480401A8) - Data: 04 00 00 00  returns 0x00 (0001ms, 0537ms total)
T13A0 238:715 JLINK_IsHalted()  returns FALSE (0001ms, 0538ms total)
T13A0 238:816 JLINK_IsHalted()  returns FALSE (0000ms, 0537ms total)
T13A0 238:918 JLINK_IsHalted()  returns FALSE (0001ms, 0538ms total)
T13A0 239:019 JLINK_IsHalted()  returns FALSE (0000ms, 0537ms total)
T13A0 239:120 JLINK_IsHalted()  returns FALSE (0000ms, 0537ms total)
T2740 239:221 JLINK_ReadMem (0x48040200, 0x0008 Bytes, ...) -- CPU is running -- CPU_ReadMem(8 bytes @ 0x48040200) - Data: 11 00 09 00 90 00 00 00  returns 0x00 (0001ms, 0538ms total)
T2740 239:222 JLINK_ReadMem (0x48040208, 0x0004 Bytes, ...) -- CPU is running -- CPU_ReadMem(4 bytes @ 0x48040208) - Data: 01 00 00 00  returns 0x00 (0001ms, 0539ms total)
T2740 239:223 JLINK_ReadMem (0x48040214, 0x0028 Bytes, ...) -- CPU is running -- CPU_ReadMem(40 bytes @ 0x48040214) - Data: 68 00 00 00 00 00 00 00 00 00 00 00 00 00 00 00 ...  returns 0x00 (0001ms, 0540ms total)
T2740 239:224 JLINK_ReadMem (0x4804023C, 0x0004 Bytes, ...) -- CPU is running -- CPU_ReadMem(4 bytes @ 0x4804023C) - Data: 00 00 00 00  returns 0x00 (0001ms, 0541ms total)
T2740 239:225 JLINK_ReadMem (0x48040270, 0x0004 Bytes, ...) -- CPU is running -- CPU_ReadMem(4 bytes @ 0x48040270) - Data: DD 39 00 00  returns 0x00 (0001ms, 0542ms total)
T2740 239:226 JLINK_ReadMem (0x480402A0, 0x0008 Bytes, ...) -- CPU is running -- CPU_ReadMem(8 bytes @ 0x480402A0) - Data: 01 00 00 00 00 01 00 00  returns 0x00 (0001ms, 0543ms total)
T2740 239:227 JLINK_ReadMem (0x480402A8, 0x0004 Bytes, ...) -- CPU is running -- CPU_ReadMem(4 bytes @ 0x480402A8) - Data: 00 02 00 00  returns 0x00 (0001ms, 0544ms total)
T2740 239:235 JLINK_ReadMem (0x48040100, 0x0008 Bytes, ...) -- CPU is running -- CPU_ReadMem(8 bytes @ 0x48040100) - Data: 01 00 42 00 00 40 00 00  returns 0x00 (0001ms, 0545ms total)
T2740 239:236 JLINK_ReadMem (0x48040108, 0x0004 Bytes, ...) -- CPU is running -- CPU_ReadMem(4 bytes @ 0x48040108) - Data: 01 00 00 00  returns 0x00 (0001ms, 0546ms total)
T2740 239:237 JLINK_ReadMem (0x48040114, 0x0028 Bytes, ...) -- CPU is running -- CPU_ReadMem(40 bytes @ 0x48040114) - Data: 00 00 00 00 00 00 00 00 00 00 00 00 00 00 00 00 ...  returns 0x00 (0001ms, 0547ms total)
T2740 239:238 JLINK_ReadMem (0x4804013C, 0x0004 Bytes, ...) -- CPU is running -- CPU_ReadMem(4 bytes @ 0x4804013C) - Data: 06 00 00 00  returns 0x00 (0001ms, 0548ms total)
T2740 239:239 JLINK_ReadMem (0x48040170, 0x0004 Bytes, ...) -- CPU is running -- CPU_ReadMem(4 bytes @ 0x48040170) - Data: 00 00 00 00  returns 0x00 (0001ms, 0549ms total)
T2740 239:240 JLINK_ReadMem (0x480401A0, 0x0008 Bytes, ...) -- CPU is running -- CPU_ReadMem(8 bytes @ 0x480401A0) - Data: 00 00 00 00 04 01 00 00  returns 0x00 (0001ms, 0550ms total)
T2740 239:241 JLINK_ReadMem (0x480401A8, 0x0004 Bytes, ...) -- CPU is running -- CPU_ReadMem(4 bytes @ 0x480401A8) - Data: 04 00 00 00  returns 0x00 (0001ms, 0551ms total)
T13A0 239:242 JLINK_IsHalted()  returns FALSE (0001ms, 0552ms total)
T13A0 239:344 JLINK_IsHalted()  returns FALSE (0000ms, 0551ms total)
T13A0 239:446 JLINK_IsHalted()  returns FALSE (0000ms, 0551ms total)
T13A0 239:547 JLINK_IsHalted()  returns FALSE (0000ms, 0551ms total)
T13A0 239:648 JLINK_IsHalted()  returns FALSE (0000ms, 0551ms total)
T2740 239:749 JLINK_ReadMem (0x48040200, 0x0008 Bytes, ...) -- CPU is running -- CPU_ReadMem(8 bytes @ 0x48040200) - Data: 11 00 09 00 90 00 00 00  returns 0x00 (0000ms, 0551ms total)
T2740 239:749 JLINK_ReadMem (0x48040208, 0x0004 Bytes, ...) -- CPU is running -- CPU_ReadMem(4 bytes @ 0x48040208) - Data: 01 00 00 00  returns 0x00 (0001ms, 0552ms total)
T2740 239:750 JLINK_ReadMem (0x48040214, 0x0028 Bytes, ...) -- CPU is running -- CPU_ReadMem(40 bytes @ 0x48040214) - Data: 68 00 00 00 00 00 00 00 00 00 00 00 00 00 00 00 ...  returns 0x00 (0001ms, 0553ms total)
T2740 239:752 JLINK_ReadMem (0x4804023C, 0x0004 Bytes, ...) -- CPU is running -- CPU_ReadMem(4 bytes @ 0x4804023C) - Data: 00 00 00 00  returns 0x00 (0001ms, 0554ms total)
T2740 239:753 JLINK_ReadMem (0x48040270, 0x0004 Bytes, ...) -- CPU is running -- CPU_ReadMem(4 bytes @ 0x48040270) - Data: FD 5B 00 00  returns 0x00 (0000ms, 0554ms total)
T2740 239:753 JLINK_ReadMem (0x480402A0, 0x0008 Bytes, ...) -- CPU is running -- CPU_ReadMem(8 bytes @ 0x480402A0) - Data: 01 00 00 00 00 01 00 00  returns 0x00 (0001ms, 0555ms total)
T2740 239:754 JLINK_ReadMem (0x480402A8, 0x0004 Bytes, ...) -- CPU is running -- CPU_ReadMem(4 bytes @ 0x480402A8) - Data: 00 02 00 00  returns 0x00 (0001ms, 0556ms total)
T2740 239:762 JLINK_ReadMem (0x48040100, 0x0008 Bytes, ...) -- CPU is running -- CPU_ReadMem(8 bytes @ 0x48040100) - Data: 01 00 42 00 00 40 00 00  returns 0x00 (0001ms, 0557ms total)
T2740 239:763 JLINK_ReadMem (0x48040108, 0x0004 Bytes, ...) -- CPU is running -- CPU_ReadMem(4 bytes @ 0x48040108) - Data: 01 00 00 00  returns 0x00 (0000ms, 0557ms total)
T2740 239:763 JLINK_ReadMem (0x48040114, 0x0028 Bytes, ...) -- CPU is running -- CPU_ReadMem(40 bytes @ 0x48040114) - Data: 00 00 00 00 00 00 00 00 00 00 00 00 00 00 00 00 ...  returns 0x00 (0001ms, 0558ms total)
T2740 239:764 JLINK_ReadMem (0x4804013C, 0x0004 Bytes, ...) -- CPU is running -- CPU_ReadMem(4 bytes @ 0x4804013C) - Data: 06 00 00 00  returns 0x00 (0002ms, 0560ms total)
T2740 239:766 JLINK_ReadMem (0x48040170, 0x0004 Bytes, ...) -- CPU is running -- CPU_ReadMem(4 bytes @ 0x48040170) - Data: 00 00 00 00  returns 0x00 (0001ms, 0561ms total)
T2740 239:767 JLINK_ReadMem (0x480401A0, 0x0008 Bytes, ...) -- CPU is running -- CPU_ReadMem(8 bytes @ 0x480401A0) - Data: 00 00 00 00 04 01 00 00  returns 0x00 (0001ms, 0562ms total)
T2740 239:768 JLINK_ReadMem (0x480401A8, 0x0004 Bytes, ...) -- CPU is running -- CPU_ReadMem(4 bytes @ 0x480401A8) - Data: 04 00 00 00  returns 0x00 (0000ms, 0562ms total)
T13A0 239:769 JLINK_IsHalted()  returns FALSE (0001ms, 0563ms total)
T2740 239:819 JLINK_SetBPEx(Addr = 0x1000157A, Type = 0xFFFFFFF2) -- CPU is running -- CPU is running -- CPU_WriteMem(4 bytes @ 0xE0002000) -- CPU is running -- CPU_WriteMem(4 bytes @ 0xE0002008)  returns 0x00000001 (0001ms, 0563ms total)
T13A0 239:871 JLINK_IsHalted()  returns FALSE (0000ms, 0563ms total)
T2740 239:877 JLINK_ClrBPEx(BPHandle = 0x00000001) -- CPU is running -- CPU is running -- CPU_WriteMem(4 bytes @ 0xE0002008) -- CPU is running -- CPU_WriteMem(4 bytes @ 0xE000200C) -- CPU is running -- CPU_WriteMem(4 bytes @ 0xE0002010) -- CPU is running -- CPU_WriteMem(4 bytes @ 0xE0002014)  returns 0x00 (0002ms, 0565ms total)
T13A0 239:973 JLINK_IsHalted()  returns FALSE (0000ms, 0565ms total)
T13A0 240:074 JLINK_IsHalted()  returns FALSE (0000ms, 0565ms total)
T2740 240:082 JLINK_SetBPEx(Addr = 0x1000157A, Type = 0xFFFFFFF2) -- CPU is running -- CPU is running -- CPU_WriteMem(4 bytes @ 0xE0002000) -- CPU is running -- CPU_WriteMem(4 bytes @ 0xE0002008)  returns 0x00000002 (0001ms, 0566ms total)
T13A0 240:175 JLINK_IsHalted()  returns FALSE (0000ms, 0566ms total)
T2740 240:276 JLINK_ReadMem (0x48040200, 0x0008 Bytes, ...) -- CPU is running -- CPU_ReadMem(8 bytes @ 0x48040200) - Data: 11 00 09 00 90 00 00 00  returns 0x00 (0000ms, 0566ms total)
T2740 240:276 JLINK_ReadMem (0x48040208, 0x0004 Bytes, ...) -- CPU is running -- CPU_ReadMem(4 bytes @ 0x48040208) - Data: 01 00 00 00  returns 0x00 (0001ms, 0567ms total)
T2740 240:278 JLINK_ReadMem (0x48040214, 0x0028 Bytes, ...) -- CPU is running -- CPU_ReadMem(40 bytes @ 0x48040214) - Data: 68 00 00 00 00 00 00 00 00 00 00 00 00 00 00 00 ...  returns 0x00 (0000ms, 0567ms total)
T2740 240:279 JLINK_ReadMem (0x4804023C, 0x0004 Bytes, ...) -- CPU is running -- CPU_ReadMem(4 bytes @ 0x4804023C) - Data: 00 00 00 00  returns 0x00 (0000ms, 0568ms total)
T2740 240:279 JLINK_ReadMem (0x48040270, 0x0004 Bytes, ...) -- CPU is running -- CPU_ReadMem(4 bytes @ 0x48040270) - Data: DB C4 00 00  returns 0x00 (0001ms, 0569ms total)
T2740 240:280 JLINK_ReadMem (0x480402A0, 0x0008 Bytes, ...) -- CPU is running -- CPU_ReadMem(8 bytes @ 0x480402A0) - Data: 01 00 00 00 00 01 00 00  returns 0x00 (0001ms, 0570ms total)
T2740 240:281 JLINK_ReadMem (0x480402A8, 0x0004 Bytes, ...) -- CPU is running -- CPU_ReadMem(4 bytes @ 0x480402A8) - Data: 00 02 00 00  returns 0x00 (0001ms, 0571ms total)
T2740 240:290 JLINK_ReadMem (0x48040100, 0x0008 Bytes, ...) -- CPU is running -- CPU_ReadMem(8 bytes @ 0x48040100) - Data: 01 00 42 00 00 40 00 00  returns 0x00 (0000ms, 0571ms total)
T2740 240:290 JLINK_ReadMem (0x48040108, 0x0004 Bytes, ...) -- CPU is running -- CPU_ReadMem(4 bytes @ 0x48040108) - Data: 01 00 00 00  returns 0x00 (0001ms, 0572ms total)
T2740 240:291 JLINK_ReadMem (0x48040114, 0x0028 Bytes, ...) -- CPU is running -- CPU_ReadMem(40 bytes @ 0x48040114) - Data: 00 00 00 00 00 00 00 00 00 00 00 00 00 00 00 00 ...  returns 0x00 (0001ms, 0573ms total)
T2740 240:292 JLINK_ReadMem (0x4804013C, 0x0004 Bytes, ...) -- CPU is running -- CPU_ReadMem(4 bytes @ 0x4804013C) - Data: 06 00 00 00  returns 0x00 (0002ms, 0575ms total)
T2740 240:294 JLINK_ReadMem (0x48040170, 0x0004 Bytes, ...) -- CPU is running -- CPU_ReadMem(4 bytes @ 0x48040170) - Data: 00 00 00 00  returns 0x00 (0000ms, 0575ms total)
T2740 240:294 JLINK_ReadMem (0x480401A0, 0x0008 Bytes, ...) -- CPU is running -- CPU_ReadMem(8 bytes @ 0x480401A0) - Data: 00 00 00 00 04 01 00 00  returns 0x00 (0001ms, 0576ms total)
T2740 240:295 JLINK_ReadMem (0x480401A8, 0x0004 Bytes, ...) -- CPU is running -- CPU_ReadMem(4 bytes @ 0x480401A8) - Data: 04 00 00 00  returns 0x00 (0001ms, 0577ms total)
T13A0 240:297 JLINK_IsHalted()  returns FALSE (0001ms, 0578ms total)
T13A0 240:398 JLINK_IsHalted()  returns FALSE (0000ms, 0577ms total)
T13A0 240:499 JLINK_IsHalted()  returns FALSE (0001ms, 0578ms total)
T13A0 240:600 JLINK_IsHalted()  returns FALSE (0000ms, 0577ms total)
T13A0 240:701 JLINK_IsHalted()  returns FALSE (0000ms, 0577ms total)
